T5570 000:008.091   SEGGER J-Link V7.58c Log File
T5570 000:008.210   DLL Compiled: Nov 24 2021 17:20:18
T5570 000:008.222   Logging started @ 2022-03-08 04:57
T5570 000:008.237 - 8.244ms
T5570 000:008.253 JLINK_SetWarnOutHandler(...)
T5570 000:008.283 - 0.035ms
T5570 000:008.295 JLINK_OpenEx(...)
T5570 000:009.880   Firmware: J-Link V9 compiled May  7 2021 16:26:12
T5570 000:010.339   Firmware: J-Link V9 compiled May  7 2021 16:26:12
T5570 000:010.489   Decompressing FW timestamp took 121 us
T5570 000:016.924   Hardware: V9.60
T5570 000:016.951   S/N: 69660740
T5570 000:016.968   OEM: SEGGER
T5570 000:016.985   Feature(s): RDI, GDB, FlashDL, FlashBP, JFlash
T5570 000:017.938   TELNET listener socket opened on port 19021
T5570 000:018.094   WEBSRV WEBSRV_Init(): Starting webserver thread(s)
T5570 000:018.201   WEBSRV Webserver running on local port 19080
T5570 000:026.287 - 18.009ms returns "O.K."
T5570 000:026.323 JLINK_GetEmuCaps()
T5570 000:026.335 - 0.017ms returns 0xB9FF7BBF
T5570 000:026.350 JLINK_TIF_GetAvailable(...)
T5570 000:026.645 - 0.301ms
T5570 000:026.660 JLINK_SetErrorOutHandler(...)
T5570 000:026.672 - 0.017ms
T5570 000:026.699 JLINK_ExecCommand("ProjectFile = "C:\Users\AlexZheng\Documents\GitHub\Zonda\codes for STM32\MDK-ARM\JLinkSettings.ini"", ...). 
T5570 000:034.485   Ref file found at: C:\Keil_v5\ARM\Segger\JLinkDevices.ref
T5570 000:034.629   XML referenced by ref file: C:\Program Files\SEGGER\JLink\JLinkDevices.xml
T5570 000:035.214   C:\Program Files\SEGGER\JLink\JLinkDevices.xml evaluated successfully.
T5570 000:088.049 - 61.367ms returns 0x00
T5570 000:088.129 JLINK_ExecCommand("Device = STM32F407IGHx", ...). 
T5570 000:088.483   Device "STM32F407IG" selected.
T5570 000:088.759 - 0.621ms returns 0x00
T5570 000:088.775 JLINK_ExecCommand("DisableConnectionTimeout", ...). 
T5570 000:088.816 - 0.007ms returns 0x01
T5570 000:088.829 JLINK_GetHardwareVersion()
T5570 000:088.840 - 0.017ms returns 96000
T5570 000:088.856 JLINK_GetDLLVersion()
T5570 000:088.867 - 0.016ms returns 75803
T5570 000:088.880 JLINK_GetOEMString(...)
T5570 000:088.893 JLINK_GetFirmwareString(...)
T5570 000:088.904 - 0.016ms
T5570 000:088.928 JLINK_GetDLLVersion()
T5570 000:088.939 - 0.016ms returns 75803
T5570 000:088.951 JLINK_GetCompileDateTime()
T5570 000:088.962 - 0.016ms
T5570 000:088.979 JLINK_GetFirmwareString(...)
T5570 000:088.990 - 0.016ms
T5570 000:089.004 JLINK_GetHardwareVersion()
T5570 000:089.015 - 0.016ms returns 96000
T5570 000:089.031 JLINK_GetSN()
T5570 000:089.042 - 0.017ms returns 69660740
T5570 000:089.057 JLINK_GetOEMString(...)
T5570 000:089.075 JLINK_TIF_Select(JLINKARM_TIF_SWD)
T5570 000:090.138 - 1.075ms returns 0x00
T5570 000:090.158 JLINK_HasError()
T5570 000:090.176 JLINK_SetSpeed(5000)
T5570 000:090.395 - 0.224ms
T5570 000:090.409 JLINK_GetId()
T5570 000:090.767   InitTarget() start
T5570 000:090.798    J-Link Script File: Executing InitTarget()
T5570 000:098.088   InitTarget() end
T5570 000:098.715   Found SW-DP with ID 0x2BA01477
T5570 000:100.898   DPIDR: 0x2BA01477
T5570 000:100.918   CoreSight SoC-400 or earlier
T5570 000:100.940   Scanning AP map to find all available APs
T5570 000:101.446   AP[1]: Stopped AP scan as end of AP map has been reached
T5570 000:101.469   AP[0]: AHB-AP (IDR: 0x24770011)
T5570 000:101.488   Iterating through AP map to find AHB-AP to use
T5570 000:102.418   AP[0]: Core found
T5570 000:102.439   AP[0]: AHB-AP ROM base: 0xE00FF000
T5570 000:102.908   CPUID register: 0x410FC241. Implementer code: 0x41 (ARM)
T5570 000:102.929   Found Cortex-M4 r0p1, Little endian.
T5570 000:204.589   -- Max. mem block: 0x00010C40
T5570 000:204.836   CPU_ReadMem(4 bytes @ 0xE000EDF0)
T5570 000:205.288   CPU_ReadMem(4 bytes @ 0xE0002000)
T5570 000:205.762   FPUnit: 6 code (BP) slots and 2 literal slots
T5570 000:205.780   CPU_ReadMem(4 bytes @ 0xE000EDFC)
T5570 000:206.185   CPU_WriteMem(4 bytes @ 0xE000EDFC)
T5570 000:206.618   CPU_ReadMem(4 bytes @ 0xE0001000)
T5570 000:207.003   CPU_WriteMem(4 bytes @ 0xE0001000)
T5570 000:207.414   CPU_ReadMem(4 bytes @ 0xE000ED88)
T5570 000:207.770   CPU_WriteMem(4 bytes @ 0xE000ED88)
T5570 000:208.293   CPU_ReadMem(4 bytes @ 0xE000ED88)
T5570 000:208.564   CPU_WriteMem(4 bytes @ 0xE000ED88)
T5570 000:209.008   CoreSight components:
T5570 000:209.029   ROMTbl[0] @ E00FF000
T5570 000:209.046   CPU_ReadMem(64 bytes @ 0xE00FF000)
T5570 000:209.633   CPU_ReadMem(32 bytes @ 0xE000EFE0)
T5570 000:210.127   [0][0]: E000E000 CID B105E00D PID 000BB00C SCS-M7
T5570 000:210.144   CPU_ReadMem(32 bytes @ 0xE0001FE0)
T5570 000:210.628   [0][1]: E0001000 CID B105E00D PID 003BB002 DWT
T5570 000:210.646   CPU_ReadMem(32 bytes @ 0xE0002FE0)
T5570 000:211.046   [0][2]: E0002000 CID B105E00D PID 002BB003 FPB
T5570 000:211.063   CPU_ReadMem(32 bytes @ 0xE0000FE0)
T5570 000:211.459   [0][3]: E0000000 CID B105E00D PID 003BB001 ITM
T5570 000:211.495   CPU_ReadMem(32 bytes @ 0xE0040FE0)
T5570 000:211.920   [0][4]: E0040000 CID B105900D PID 000BB9A1 TPIU
T5570 000:211.939   CPU_ReadMem(32 bytes @ 0xE0041FE0)
T5570 000:212.338   [0][5]: E0041000 CID B105900D PID 000BB925 ETM
T5570 000:212.638 - 122.235ms returns 0x2BA01477
T5570 000:212.658 JLINK_GetDLLVersion()
T5570 000:212.669 - 0.016ms returns 75803
T5570 000:212.682 JLINK_CORE_GetFound()
T5570 000:212.694 - 0.017ms returns 0xE0000FF
T5570 000:212.741 JLINK_GetDebugInfo(0x100 = JLINKARM_ROM_TABLE_ADDR_INDEX)
T5570 000:212.755   Value=0xE00FF000
T5570 000:212.771 - 0.035ms returns 0
T5570 000:212.789 JLINK_GetDebugInfo(0x100 = JLINKARM_ROM_TABLE_ADDR_INDEX)
T5570 000:212.800   Value=0xE00FF000
T5570 000:212.817 - 0.032ms returns 0
T5570 000:212.829 JLINK_GetDebugInfo(0x101 = JLINKARM_DEBUG_INFO_ETM_ADDR_INDEX)
T5570 000:212.840   Value=0xE0041000
T5570 000:212.856 - 0.033ms returns 0
T5570 000:212.869 JLINK_ReadMemEx(0xE0041FD0, 0x20 Bytes, Flags = 0x02000004)
T5570 000:212.895   CPU_ReadMem(32 bytes @ 0xE0041FD0)
T5570 000:213.298   Data:  04 00 00 00 00 00 00 00 00 00 00 00 00 00 00 00 ...
T5570 000:213.316 - 0.452ms returns 32 (0x20)
T5570 000:213.328 JLINK_GetDebugInfo(0x102 = JLINKARM_DEBUG_INFO_MTB_ADDR_INDEX)
T5570 000:213.340   Value=0x00000000
T5570 000:213.356 - 0.033ms returns 0
T5570 000:213.368 JLINK_GetDebugInfo(0x103 = JLINKARM_DEBUG_INFO_TPIU_ADDR_INDEX)
T5570 000:213.380   Value=0xE0040000
T5570 000:213.396 - 0.033ms returns 0
T5570 000:213.408 JLINK_GetDebugInfo(0x104 = JLINKARM_DEBUG_INFO_ITM_ADDR_INDEX)
T5570 000:213.419   Value=0xE0000000
T5570 000:213.436 - 0.033ms returns 0
T5570 000:213.448 JLINK_GetDebugInfo(0x105 = JLINKARM_DEBUG_INFO_DWT_ADDR_INDEX)
T5570 000:213.459   Value=0xE0001000
T5570 000:213.476 - 0.033ms returns 0
T5570 000:213.488 JLINK_GetDebugInfo(0x106 = JLINKARM_DEBUG_INFO_FPB_ADDR_INDEX)
T5570 000:213.499   Value=0xE0002000
T5570 000:213.516 - 0.033ms returns 0
T5570 000:213.528 JLINK_GetDebugInfo(0x107 = JLINKARM_DEBUG_INFO_NVIC_ADDR_INDEX)
T5570 000:213.539   Value=0xE000E000
T5570 000:213.555 - 0.033ms returns 0
T5570 000:213.567 JLINK_GetDebugInfo(0x10C = JLINKARM_DEBUG_INFO_DBG_ADDR_INDEX)
T5570 000:213.579   Value=0xE000EDF0
T5570 000:213.595 - 0.033ms returns 0
T5570 000:213.607 JLINK_GetDebugInfo(0x01 = Unknown)
T5570 000:213.618   Value=0x00000001
T5570 000:213.635 - 0.032ms returns 0
T5570 000:213.647 JLINK_ReadMemU32(0xE000ED00, 0x1 Items)
T5570 000:213.660   CPU_ReadMem(4 bytes @ 0xE000ED00)
T5570 000:213.939   Data:  41 C2 0F 41
T5570 000:213.956   Debug reg: CPUID
T5570 000:213.973 - 0.331ms returns 1 (0x1)
T5570 000:213.986 JLINK_GetDebugInfo(0x10F = JLINKARM_DEBUG_INFO_HAS_CORTEX_M_SECURITY_EXT_INDEX)
T5570 000:213.998   Value=0x00000000
T5570 000:214.014 - 0.033ms returns 0
T5570 000:214.026 JLINK_HasError()
T5570 000:214.039 JLINK_SetResetType(JLINKARM_CM3_RESET_TYPE_NORMAL)
T5570 000:214.051 - 0.017ms returns JLINKARM_CM3_RESET_TYPE_NORMAL
T5570 000:214.064 JLINK_Reset()
T5570 000:214.081   CPU is running
T5570 000:214.098   CPU_WriteMem(4 bytes @ 0xE000EDF0)
T5570 000:214.384   CPU is running
T5570 000:214.401   CPU_WriteMem(4 bytes @ 0xE000EDFC)
T5570 000:214.721   Reset: Halt core after reset via DEMCR.VC_CORERESET.
T5570 000:215.087   Reset: Reset device via AIRCR.SYSRESETREQ.
T5570 000:215.105   CPU is running
T5570 000:215.122   CPU_WriteMem(4 bytes @ 0xE000ED0C)
T5570 000:267.725   CPU_ReadMem(4 bytes @ 0xE000EDF0)
T5570 000:268.160   CPU_ReadMem(4 bytes @ 0xE000EDF0)
T5570 000:268.620   CPU is running
T5570 000:268.637   CPU_WriteMem(4 bytes @ 0xE000EDF0)
T5570 000:269.049   CPU is running
T5570 000:269.071   CPU_WriteMem(4 bytes @ 0xE000EDFC)
T5570 000:275.051   CPU_ReadMem(4 bytes @ 0xE000EDF0)
T5570 000:277.721   CPU_WriteMem(4 bytes @ 0xE0002000)
T5570 000:278.141   CPU_ReadMem(4 bytes @ 0xE000EDFC)
T5570 000:278.594   CPU_ReadMem(4 bytes @ 0xE0001000)
T5570 000:279.003 - 64.945ms
T5570 000:279.024 JLINK_HasError()
T5570 000:279.037 JLINK_ReadReg(R15 (PC))
T5570 000:279.051 - 0.036ms returns 0x08000248
T5570 000:279.080 JLINK_ReadReg(XPSR)
T5570 000:279.092 - 0.017ms returns 0x01000000
T5570 000:279.151 JLINK_Halt()
T5570 000:279.163 - 0.017ms returns 0x00
T5570 000:279.176 JLINK_ReadMemU32(0xE000EDF0, 0x1 Items)
T5570 000:279.192   CPU_ReadMem(4 bytes @ 0xE000EDF0)
T5570 000:279.609   Data:  03 00 03 00
T5570 000:279.634   Debug reg: DHCSR
T5570 000:279.651 - 0.480ms returns 1 (0x1)
T5570 000:279.665 JLINK_WriteU32_64(0xE000EDF0, 0xA05F0003)
T5570 000:279.676   Debug reg: DHCSR
T5570 000:279.885   CPU_WriteMem(4 bytes @ 0xE000EDF0)
T5570 000:280.279 - 0.620ms returns 0 (0x00000000)
T5570 000:280.293 JLINK_WriteU32_64(0xE000EDFC, 0x01000000)
T5570 000:280.304   Debug reg: DEMCR
T5570 000:280.323   CPU_WriteMem(4 bytes @ 0xE000EDFC)
T5570 000:280.759 - 0.474ms returns 0 (0x00000000)
T5570 000:280.802 JLINK_GetHWStatus(...)
T5570 000:281.095 - 0.302ms returns 0
T5570 000:281.124 JLINK_GetNumBPUnits(Type = 0xFFFFFF00)
T5570 000:281.136 - 0.017ms returns 0x06
T5570 000:281.148 JLINK_GetNumBPUnits(Type = 0xF0)
T5570 000:281.159 - 0.017ms returns 0x2000
T5570 000:281.171 JLINK_GetNumWPUnits()
T5570 000:281.183 - 0.016ms returns 4
T5570 000:281.204 JLINK_GetSpeed()
T5570 000:281.215 - 0.016ms returns 4000
T5570 000:281.231 JLINK_ReadMemU32(0xE000E004, 0x1 Items)
T5570 000:281.245   CPU_ReadMem(4 bytes @ 0xE000E004)
T5570 000:281.564   Data:  02 00 00 00
T5570 000:281.580 - 0.354ms returns 1 (0x1)
T5570 000:281.593 JLINK_ReadMemU32(0xE000E004, 0x1 Items)
T5570 000:281.605   CPU_ReadMem(4 bytes @ 0xE000E004)
T5570 000:282.019   Data:  02 00 00 00
T5570 000:282.036 - 0.450ms returns 1 (0x1)
T5570 000:282.051 JLINK_WriteMemEx(0xE0001000, 0x0000001C Bytes, Flags = 0x02000004)
T5570 000:282.063   Data:  01 00 00 00 00 00 00 00 00 00 00 00 00 00 00 00 ...
T5570 000:282.083   CPU_WriteMem(28 bytes @ 0xE0001000)
T5570 000:282.586 - 0.541ms returns 0x1C
T5570 000:282.600 JLINK_HasError()
T5570 000:282.613 JLINK_ReadReg(R15 (PC))
T5570 000:282.626 - 0.018ms returns 0x08000248
T5570 000:282.638 JLINK_ReadReg(XPSR)
T5570 000:282.649 - 0.017ms returns 0x01000000
T5570 000:284.980 JLINK_ReadMemEx(0xE0001004, 0x4 Bytes, Flags = 0x02000000)
T5570 000:285.005   Data:  00 00 00 00
T5570 000:285.023   Debug reg: DWT_CYCCNT
T5570 000:285.040 - 0.065ms returns 4 (0x4)
T5570 000:636.626 JLINK_HasError()
T5570 000:636.669 JLINK_SetResetType(JLINKARM_CM3_RESET_TYPE_NORMAL)
T5570 000:636.682 - 0.019ms returns JLINKARM_CM3_RESET_TYPE_NORMAL
T5570 000:636.695 JLINK_Reset()
T5570 000:636.722   CPU_WriteMem(4 bytes @ 0xE000EDF0)
T5570 000:637.068   CPU_WriteMem(4 bytes @ 0xE000EDFC)
T5570 000:637.322   Reset: Halt core after reset via DEMCR.VC_CORERESET.
T5570 000:637.767   Reset: Reset device via AIRCR.SYSRESETREQ.
T5570 000:637.785   CPU_WriteMem(4 bytes @ 0xE000ED0C)
T5570 000:690.484   CPU_ReadMem(4 bytes @ 0xE000EDF0)
T5570 000:690.781   CPU_ReadMem(4 bytes @ 0xE000EDF0)
T5570 000:691.030   CPU_WriteMem(4 bytes @ 0xE000EDF0)
T5570 000:691.277   CPU_WriteMem(4 bytes @ 0xE000EDFC)
T5570 000:697.045   CPU_ReadMem(4 bytes @ 0xE000EDF0)
T5570 000:699.161   CPU_WriteMem(4 bytes @ 0xE0002000)
T5570 000:699.561   CPU_ReadMem(4 bytes @ 0xE000EDFC)
T5570 000:699.836   CPU_ReadMem(4 bytes @ 0xE0001000)
T5570 000:700.251 - 63.572ms
T5570 000:700.312 JLINK_HasError()
T5570 000:700.327 JLINK_ReadReg(R15 (PC))
T5570 000:700.342 - 0.021ms returns 0x08000248
T5570 000:700.355 JLINK_ReadReg(XPSR)
T5570 000:700.367 - 0.017ms returns 0x01000000
T5570 000:823.241 JLINK_ReadMemEx(0x08000248, 0x3C Bytes, Flags = 0x02000000)
T5570 000:823.278   CPU_ReadMem(128 bytes @ 0x08000240)
T5570 000:824.135    -- Updating C cache (128 bytes @ 0x08000240)
T5570 000:824.166    -- Read from C cache (60 bytes @ 0x08000248)
T5570 000:824.185   Data:  09 48 80 47 09 48 00 47 FE E7 FE E7 FE E7 FE E7 ...
T5570 000:824.202 - 0.967ms returns 60 (0x3C)
T5570 000:824.218 JLINK_ReadMemEx(0x08000248, 0x2 Bytes, Flags = 0x02000000)
T5570 000:824.232    -- Read from C cache (2 bytes @ 0x08000248)
T5570 000:824.249   Data:  09 48
T5570 000:824.266 - 0.053ms returns 2 (0x2)
T5570 000:824.334 JLINK_ReadMemEx(0x0800024A, 0x2 Bytes, Flags = 0x02000000)
T5570 000:824.346    -- Read from C cache (2 bytes @ 0x0800024A)
T5570 000:824.363   Data:  80 47
T5570 000:824.380 - 0.051ms returns 2 (0x2)
T5570 000:824.404 JLINK_ReadMemEx(0x0800024A, 0x2 Bytes, Flags = 0x02000000)
T5570 000:824.416    -- Read from C cache (2 bytes @ 0x0800024A)
T5570 000:824.433   Data:  80 47
T5570 000:824.450 - 0.051ms returns 2 (0x2)
T5570 000:824.463 JLINK_ReadMemEx(0x0800024C, 0x3C Bytes, Flags = 0x02000000)
T5570 000:824.475    -- Read from C cache (60 bytes @ 0x0800024C)
T5570 000:824.492   Data:  09 48 00 47 FE E7 FE E7 FE E7 FE E7 FE E7 FE E7 ...
T5570 000:824.509 - 0.052ms returns 60 (0x3C)
T5570 000:824.521 JLINK_ReadMemEx(0x0800024C, 0x2 Bytes, Flags = 0x02000000)
T5570 000:824.533    -- Read from C cache (2 bytes @ 0x0800024C)
T5570 000:824.550   Data:  09 48
T5570 000:824.567 - 0.051ms returns 2 (0x2)
T5570 002:061.810 JLINK_HasError()
T5570 002:061.849 JLINK_ReadReg(R0)
T5570 002:062.193 - 0.351ms returns 0x00000000
T5570 002:062.209 JLINK_ReadReg(R1)
T5570 002:062.221 - 0.018ms returns 0x00000000
T5570 002:062.234 JLINK_ReadReg(R2)
T5570 002:062.245 - 0.017ms returns 0x00000000
T5570 002:062.258 JLINK_ReadReg(R3)
T5570 002:062.270 - 0.017ms returns 0x00000000
T5570 002:062.282 JLINK_ReadReg(R4)
T5570 002:062.294 - 0.017ms returns 0x00000000
T5570 002:062.307 JLINK_ReadReg(R5)
T5570 002:062.319 - 0.017ms returns 0x00000000
T5570 002:062.331 JLINK_ReadReg(R6)
T5570 002:062.343 - 0.017ms returns 0x00000000
T5570 002:062.356 JLINK_ReadReg(R7)
T5570 002:062.367 - 0.017ms returns 0x00000000
T5570 002:062.380 JLINK_ReadReg(R8)
T5570 002:062.396 - 0.023ms returns 0x00000000
T5570 002:062.410 JLINK_ReadReg(R9)
T5570 002:062.421 - 0.017ms returns 0x00000000
T5570 002:062.434 JLINK_ReadReg(R10)
T5570 002:062.445 - 0.017ms returns 0x00000000
T5570 002:062.458 JLINK_ReadReg(R11)
T5570 002:062.470 - 0.017ms returns 0x00000000
T5570 002:062.482 JLINK_ReadReg(R12)
T5570 002:062.494 - 0.017ms returns 0x00000000
T5570 002:062.506 JLINK_ReadReg(R13 (SP))
T5570 002:062.519 - 0.018ms returns 0x20000CF0
T5570 002:062.531 JLINK_ReadReg(R14)
T5570 002:062.544 - 0.017ms returns 0xFFFFFFFF
T5570 002:062.556 JLINK_ReadReg(R15 (PC))
T5570 002:062.568 - 0.018ms returns 0x08000248
T5570 002:062.581 JLINK_ReadReg(XPSR)
T5570 002:062.593 - 0.017ms returns 0x01000000
T5570 002:062.605 JLINK_ReadReg(MSP)
T5570 002:062.617 - 0.017ms returns 0x20000CF0
T5570 002:062.629 JLINK_ReadReg(PSP)
T5570 002:062.641 - 0.017ms returns 0x00000000
T5570 002:062.654 JLINK_ReadReg(CFBP)
T5570 002:062.665 - 0.017ms returns 0x00000000
T5570 002:062.678 JLINK_ReadReg(FPSCR)
T5570 002:065.571 - 2.916ms returns 0x00000000
T5570 002:065.604 JLINK_ReadReg(FPS0)
T5570 002:065.618 - 0.019ms returns 0x00000000
T5570 002:065.631 JLINK_ReadReg(FPS1)
T5570 002:065.643 - 0.017ms returns 0x00000000
T5570 002:065.655 JLINK_ReadReg(FPS2)
T5570 002:065.667 - 0.017ms returns 0x00000000
T5570 002:065.680 JLINK_ReadReg(FPS3)
T5570 002:065.692 - 0.017ms returns 0x00000000
T5570 002:065.707 JLINK_ReadReg(FPS4)
T5570 002:065.720 - 0.019ms returns 0x00000000
T5570 002:065.733 JLINK_ReadReg(FPS5)
T5570 002:065.745 - 0.017ms returns 0x00000000
T5570 002:065.757 JLINK_ReadReg(FPS6)
T5570 002:065.769 - 0.017ms returns 0x00000000
T5570 002:065.782 JLINK_ReadReg(FPS7)
T5570 002:065.793 - 0.017ms returns 0x00000000
T5570 002:065.806 JLINK_ReadReg(FPS8)
T5570 002:065.817 - 0.017ms returns 0x00000000
T5570 002:065.830 JLINK_ReadReg(FPS9)
T5570 002:065.841 - 0.017ms returns 0x00000000
T5570 002:065.854 JLINK_ReadReg(FPS10)
T5570 002:065.866 - 0.017ms returns 0x00000000
T5570 002:065.878 JLINK_ReadReg(FPS11)
T5570 002:065.890 - 0.017ms returns 0x00000000
T5570 002:065.902 JLINK_ReadReg(FPS12)
T5570 002:065.918 - 0.021ms returns 0x00000000
T5570 002:065.931 JLINK_ReadReg(FPS13)
T5570 002:065.942 - 0.017ms returns 0x00000000
T5570 002:065.955 JLINK_ReadReg(FPS14)
T5570 002:065.967 - 0.017ms returns 0x00000000
T5570 002:065.979 JLINK_ReadReg(FPS15)
T5570 002:065.991 - 0.017ms returns 0x00000000
T5570 002:066.003 JLINK_ReadReg(FPS16)
T5570 002:066.015 - 0.017ms returns 0x00000000
T5570 002:066.027 JLINK_ReadReg(FPS17)
T5570 002:066.039 - 0.017ms returns 0x00000000
T5570 002:066.052 JLINK_ReadReg(FPS18)
T5570 002:066.063 - 0.017ms returns 0x00000000
T5570 002:066.076 JLINK_ReadReg(FPS19)
T5570 002:066.087 - 0.017ms returns 0x00000000
T5570 002:066.100 JLINK_ReadReg(FPS20)
T5570 002:066.111 - 0.017ms returns 0x00000000
T5570 002:066.124 JLINK_ReadReg(FPS21)
T5570 002:066.135 - 0.017ms returns 0x00000000
T5570 002:066.148 JLINK_ReadReg(FPS22)
T5570 002:066.159 - 0.017ms returns 0x00000000
T5570 002:066.172 JLINK_ReadReg(FPS23)
T5570 002:066.184 - 0.017ms returns 0x00000000
T5570 002:066.196 JLINK_ReadReg(FPS24)
T5570 002:066.208 - 0.017ms returns 0x00000000
T5570 002:066.220 JLINK_ReadReg(FPS25)
T5570 002:066.232 - 0.017ms returns 0x00000000
T5570 002:066.244 JLINK_ReadReg(FPS26)
T5570 002:066.256 - 0.017ms returns 0x00000000
T5570 002:066.269 JLINK_ReadReg(FPS27)
T5570 002:066.280 - 0.017ms returns 0x00000000
T5570 002:066.292 JLINK_ReadReg(FPS28)
T5570 002:066.304 - 0.017ms returns 0x00000000
T5570 002:066.317 JLINK_ReadReg(FPS29)
T5570 002:066.328 - 0.017ms returns 0x00000000
T5570 002:066.341 JLINK_ReadReg(FPS30)
T5570 002:066.352 - 0.017ms returns 0x00000000
T5570 002:066.365 JLINK_ReadReg(FPS31)
T5570 002:066.377 - 0.017ms returns 0x00000000
T5570 002:079.351 JLINK_ReadMemEx(0x20000030, 0x4 Bytes, Flags = 0x02000000)
T5570 002:079.403   CPU_ReadMem(64 bytes @ 0x20000000)
T5570 002:080.006    -- Updating C cache (64 bytes @ 0x20000000)
T5570 002:080.025    -- Read from C cache (4 bytes @ 0x20000030)
T5570 002:080.042   Data:  F7 D2 00 20
T5570 002:080.059 - 0.713ms returns 4 (0x4)
T5570 002:080.413 JLINK_ReadMemEx(0x20000030, 0x4 Bytes, Flags = 0x02000000)
T5570 002:080.430    -- Read from C cache (4 bytes @ 0x20000030)
T5570 002:080.448   Data:  F7 D2 00 20
T5570 002:080.465 - 0.057ms returns 4 (0x4)
T5570 002:080.492 JLINK_ReadMemEx(0x20000030, 0x4 Bytes, Flags = 0x02000000)
T5570 002:080.505    -- Read from C cache (4 bytes @ 0x20000030)
T5570 002:080.522   Data:  F7 D2 00 20
T5570 002:080.539 - 0.052ms returns 4 (0x4)
T5F3C 002:114.182 JLINK_ReadMemEx(0x08000248, 0x2 Bytes, Flags = 0x02000000)
T5F3C 002:114.219    -- Read from C cache (2 bytes @ 0x08000248)
T5F3C 002:114.238   Data:  09 48
T5F3C 002:114.255 - 0.079ms returns 2 (0x2)
T5F3C 002:114.269 JLINK_HasError()
T5F3C 002:114.284 JLINK_SetBPEx(Addr = 0x08004C7C, Type = 0xFFFFFFF2)
T5F3C 002:114.304 - 0.026ms returns 0x00000001
T5F3C 002:114.317 JLINK_HasError()
T5F3C 002:114.330 JLINK_HasError()
T5F3C 002:114.342 JLINK_Go()
T5F3C 002:114.361   CPU_WriteMem(4 bytes @ 0xE0002000)
T5F3C 002:114.732   CPU_ReadMem(4 bytes @ 0xE0001000)
T5F3C 002:115.077   CPU_WriteMem(4 bytes @ 0xE0002008)
T5F3C 002:115.103   CPU_WriteMem(4 bytes @ 0xE000200C)
T5F3C 002:115.120   CPU_WriteMem(4 bytes @ 0xE0002010)
T5F3C 002:115.138   CPU_WriteMem(4 bytes @ 0xE0002014)
T5F3C 002:115.155   CPU_WriteMem(4 bytes @ 0xE0002018)
T5F3C 002:115.177   CPU_WriteMem(4 bytes @ 0xE000201C)
T5F3C 002:116.179   CPU_WriteMem(4 bytes @ 0xE0001004)
T5F3C 002:116.887 - 2.554ms
T5F3C 002:217.282 JLINK_HasError()
T5F3C 002:217.314 JLINK_IsHalted()
T5F3C 002:219.248 - 1.950ms returns TRUE
T5F3C 002:219.275 JLINK_HasError()
T5F3C 002:219.291 JLINK_Halt()
T5F3C 002:219.303 - 0.019ms returns 0x00
T5F3C 002:219.320 JLINK_IsHalted()
T5F3C 002:219.336 - 0.021ms returns TRUE
T5F3C 002:219.349 JLINK_IsHalted()
T5F3C 002:219.360 - 0.017ms returns TRUE
T5F3C 002:219.373 JLINK_IsHalted()
T5F3C 002:219.386 - 0.018ms returns TRUE
T5F3C 002:219.402 JLINK_HasError()
T5F3C 002:219.415 JLINK_ReadReg(R15 (PC))
T5F3C 002:219.430 - 0.021ms returns 0x08004C7C
T5F3C 002:219.443 JLINK_ReadReg(XPSR)
T5F3C 002:219.456 - 0.018ms returns 0x61000000
T5F3C 002:219.472 JLINK_HasError()
T5F3C 002:219.485 JLINK_ClrBPEx(BPHandle = 0x00000001)
T5F3C 002:219.498 - 0.018ms returns 0x00
T5F3C 002:219.511 JLINK_HasError()
T5F3C 002:219.524 JLINK_HasError()
T5F3C 002:219.536 JLINK_ReadMemU32(0xE000ED30, 0x1 Items)
T5F3C 002:219.554   CPU_ReadMem(4 bytes @ 0xE000ED30)
T5F3C 002:219.883   Data:  02 00 00 00
T5F3C 002:219.906 - 0.375ms returns 1 (0x1)
T5F3C 002:219.922 JLINK_ReadMemU32(0xE0001028, 0x1 Items)
T5F3C 002:219.938   CPU_ReadMem(4 bytes @ 0xE0001028)
T5F3C 002:220.377   Data:  00 00 00 00
T5F3C 002:220.407   Debug reg: DWT_FUNC[0]
T5F3C 002:220.426 - 0.510ms returns 1 (0x1)
T5F3C 002:220.441 JLINK_ReadMemU32(0xE0001038, 0x1 Items)
T5F3C 002:220.457   CPU_ReadMem(4 bytes @ 0xE0001038)
T5F3C 002:220.781   Data:  00 02 00 00
T5F3C 002:220.803   Debug reg: DWT_FUNC[1]
T5F3C 002:220.820 - 0.385ms returns 1 (0x1)
T5F3C 002:220.835 JLINK_ReadMemU32(0xE0001048, 0x1 Items)
T5F3C 002:220.850   CPU_ReadMem(4 bytes @ 0xE0001048)
T5F3C 002:221.173   Data:  00 00 00 00
T5F3C 002:221.194   Debug reg: DWT_FUNC[2]
T5F3C 002:221.211 - 0.382ms returns 1 (0x1)
T5F3C 002:221.225 JLINK_ReadMemU32(0xE0001058, 0x1 Items)
T5F3C 002:221.239   CPU_ReadMem(4 bytes @ 0xE0001058)
T5F3C 002:221.568   Data:  00 00 00 00
T5F3C 002:221.597   Debug reg: DWT_FUNC[3]
T5F3C 002:221.620 - 0.403ms returns 1 (0x1)
T5F3C 002:221.683 JLINK_HasError()
T5F3C 002:221.701 JLINK_ReadReg(R0)
T5F3C 002:221.719 - 0.026ms returns 0x200006F0
T5F3C 002:221.737 JLINK_ReadReg(R1)
T5F3C 002:221.752 - 0.023ms returns 0x200008F0
T5F3C 002:221.769 JLINK_ReadReg(R2)
T5F3C 002:221.784 - 0.024ms returns 0x200008F0
T5F3C 002:221.801 JLINK_ReadReg(R3)
T5F3C 002:221.812 - 0.017ms returns 0x200008F0
T5F3C 002:221.825 JLINK_ReadReg(R4)
T5F3C 002:221.837 - 0.017ms returns 0x00000000
T5F3C 002:221.849 JLINK_ReadReg(R5)
T5F3C 002:221.861 - 0.017ms returns 0x2000068C
T5F3C 002:221.874 JLINK_ReadReg(R6)
T5F3C 002:221.886 - 0.018ms returns 0x00000000
T5F3C 002:221.898 JLINK_ReadReg(R7)
T5F3C 002:221.910 - 0.017ms returns 0x00000000
T5F3C 002:221.923 JLINK_ReadReg(R8)
T5F3C 002:221.934 - 0.017ms returns 0x00000000
T5F3C 002:221.947 JLINK_ReadReg(R9)
T5F3C 002:221.959 - 0.017ms returns 0x00000000
T5F3C 002:221.971 JLINK_ReadReg(R10)
T5F3C 002:221.983 - 0.017ms returns 0x08006758
T5F3C 002:221.995 JLINK_ReadReg(R11)
T5F3C 002:222.007 - 0.017ms returns 0x00000000
T5F3C 002:222.020 JLINK_ReadReg(R12)
T5F3C 002:222.032 - 0.017ms returns 0x200006CC
T5F3C 002:222.044 JLINK_ReadReg(R13 (SP))
T5F3C 002:222.056 - 0.018ms returns 0x20000CF0
T5F3C 002:222.069 JLINK_ReadReg(R14)
T5F3C 002:222.081 - 0.017ms returns 0x08000237
T5F3C 002:222.094 JLINK_ReadReg(R15 (PC))
T5F3C 002:222.108 - 0.019ms returns 0x08004C7C
T5F3C 002:222.121 JLINK_ReadReg(XPSR)
T5F3C 002:222.133 - 0.017ms returns 0x61000000
T5F3C 002:222.146 JLINK_ReadReg(MSP)
T5F3C 002:222.157 - 0.017ms returns 0x20000CF0
T5F3C 002:222.170 JLINK_ReadReg(PSP)
T5F3C 002:222.182 - 0.017ms returns 0x00000000
T5F3C 002:222.194 JLINK_ReadReg(CFBP)
T5F3C 002:222.206 - 0.017ms returns 0x04000000
T5F3C 002:222.220 JLINK_ReadReg(FPSCR)
T5F3C 002:225.266 - 3.065ms returns 0x03000000
T5F3C 002:225.298 JLINK_ReadReg(FPS0)
T5F3C 002:225.322 - 0.032ms returns 0x00000000
T5F3C 002:225.340 JLINK_ReadReg(FPS1)
T5F3C 002:225.356 - 0.024ms returns 0x00000000
T5F3C 002:225.373 JLINK_ReadReg(FPS2)
T5F3C 002:225.389 - 0.023ms returns 0x00000000
T5F3C 002:225.406 JLINK_ReadReg(FPS3)
T5F3C 002:225.418 - 0.017ms returns 0x00000000
T5F3C 002:225.430 JLINK_ReadReg(FPS4)
T5F3C 002:225.449 - 0.024ms returns 0x00000000
T5F3C 002:225.462 JLINK_ReadReg(FPS5)
T5F3C 002:225.473 - 0.017ms returns 0x00000000
T5F3C 002:225.486 JLINK_ReadReg(FPS6)
T5F3C 002:225.498 - 0.017ms returns 0x00000000
T5F3C 002:225.510 JLINK_ReadReg(FPS7)
T5F3C 002:225.522 - 0.018ms returns 0x00000000
T5F3C 002:225.536 JLINK_ReadReg(FPS8)
T5F3C 002:225.548 - 0.018ms returns 0x00000000
T5F3C 002:225.562 JLINK_ReadReg(FPS9)
T5F3C 002:225.573 - 0.017ms returns 0x00000000
T5F3C 002:225.586 JLINK_ReadReg(FPS10)
T5F3C 002:225.598 - 0.017ms returns 0x00000000
T5F3C 002:225.610 JLINK_ReadReg(FPS11)
T5F3C 002:225.622 - 0.017ms returns 0x00000000
T5F3C 002:225.635 JLINK_ReadReg(FPS12)
T5F3C 002:225.647 - 0.017ms returns 0x00000000
T5F3C 002:225.659 JLINK_ReadReg(FPS13)
T5F3C 002:225.671 - 0.017ms returns 0x00000000
T5F3C 002:225.683 JLINK_ReadReg(FPS14)
T5F3C 002:225.695 - 0.017ms returns 0x00000000
T5F3C 002:225.707 JLINK_ReadReg(FPS15)
T5F3C 002:225.719 - 0.017ms returns 0x00000000
T5F3C 002:225.732 JLINK_ReadReg(FPS16)
T5F3C 002:225.743 - 0.017ms returns 0x00000000
T5F3C 002:225.757 JLINK_ReadReg(FPS17)
T5F3C 002:225.773 - 0.023ms returns 0x00000000
T5F3C 002:225.790 JLINK_ReadReg(FPS18)
T5F3C 002:225.806 - 0.024ms returns 0x00000000
T5F3C 002:225.823 JLINK_ReadReg(FPS19)
T5F3C 002:225.840 - 0.024ms returns 0x00000000
T5F3C 002:225.859 JLINK_ReadReg(FPS20)
T5F3C 002:225.875 - 0.024ms returns 0x00000000
T5F3C 002:225.892 JLINK_ReadReg(FPS21)
T5F3C 002:225.908 - 0.023ms returns 0x00000000
T5F3C 002:225.925 JLINK_ReadReg(FPS22)
T5F3C 002:225.941 - 0.024ms returns 0x00000000
T5F3C 002:225.958 JLINK_ReadReg(FPS23)
T5F3C 002:225.974 - 0.023ms returns 0x00000000
T5F3C 002:225.991 JLINK_ReadReg(FPS24)
T5F3C 002:226.007 - 0.024ms returns 0x00000000
T5F3C 002:226.024 JLINK_ReadReg(FPS25)
T5F3C 002:226.040 - 0.023ms returns 0x00000000
T5F3C 002:226.057 JLINK_ReadReg(FPS26)
T5F3C 002:226.072 - 0.020ms returns 0x00000000
T5F3C 002:226.088 JLINK_ReadReg(FPS27)
T5F3C 002:226.102 - 0.021ms returns 0x00000000
T5F3C 002:226.118 JLINK_ReadReg(FPS28)
T5F3C 002:226.131 - 0.019ms returns 0x00000000
T5F3C 002:226.145 JLINK_ReadReg(FPS29)
T5F3C 002:226.157 - 0.017ms returns 0x00000000
T5F3C 002:226.171 JLINK_ReadReg(FPS30)
T5F3C 002:226.185 - 0.020ms returns 0x00000000
T5F3C 002:226.199 JLINK_ReadReg(FPS31)
T5F3C 002:226.210 - 0.017ms returns 0x00000000
T5570 002:228.317 JLINK_HasError()
T5570 002:228.340 JLINK_ReadMemU32(0xE0001004, 0x1 Items)
T5570 002:228.361   CPU_ReadMem(4 bytes @ 0xE0001004)
T5570 002:228.736   Data:  AA 07 00 00
T5570 002:228.755   Debug reg: DWT_CYCCNT
T5570 002:228.772 - 0.438ms returns 1 (0x1)
T5570 002:229.372 JLINK_ReadMemEx(0x20000030, 0x4 Bytes, Flags = 0x02000000)
T5570 002:229.394   CPU_ReadMem(64 bytes @ 0x20000000)
T5570 002:229.957    -- Updating C cache (64 bytes @ 0x20000000)
T5570 002:229.977    -- Read from C cache (4 bytes @ 0x20000030)
T5570 002:229.995   Data:  00 00 00 00
T5570 002:230.013 - 0.646ms returns 4 (0x4)
T5570 002:232.841 JLINK_ReadMemEx(0x08004C7C, 0x3C Bytes, Flags = 0x02000000)
T5570 002:232.869   CPU_ReadMem(128 bytes @ 0x08004C40)
T5570 002:233.685    -- Updating C cache (128 bytes @ 0x08004C40)
T5570 002:233.705    -- Read from C cache (60 bytes @ 0x08004C7C)
T5570 002:233.724   Data:  2D ED 06 8B B6 B0 FD F7 C1 F8 FF F7 09 F9 FE F7 ...
T5570 002:233.741 - 0.905ms returns 60 (0x3C)
T5570 002:233.755 JLINK_ReadMemEx(0x08004C7C, 0x2 Bytes, Flags = 0x02000000)
T5570 002:233.768    -- Read from C cache (2 bytes @ 0x08004C7C)
T5570 002:233.786   Data:  2D ED
T5570 002:233.803 - 0.053ms returns 2 (0x2)
T5570 002:233.816 JLINK_ReadMemEx(0x08004C7E, 0x2 Bytes, Flags = 0x02000000)
T5570 002:233.832    -- Read from C cache (2 bytes @ 0x08004C7E)
T5570 002:233.851   Data:  06 8B
T5570 002:233.868 - 0.057ms returns 2 (0x2)
T5570 002:233.889 JLINK_ReadMemEx(0x08004C80, 0x3C Bytes, Flags = 0x02000000)
T5570 002:233.901    -- Read from C cache (60 bytes @ 0x08004C80)
T5570 002:233.919   Data:  B6 B0 FD F7 C1 F8 FF F7 09 F9 FE F7 0B FE FE F7 ...
T5570 002:233.936 - 0.052ms returns 60 (0x3C)
T5570 002:233.948 JLINK_ReadMemEx(0x08004C80, 0x2 Bytes, Flags = 0x02000000)
T5570 002:233.961    -- Read from C cache (2 bytes @ 0x08004C80)
T5570 002:233.977   Data:  B6 B0
T5570 002:233.994 - 0.051ms returns 2 (0x2)
T5570 002:234.007 JLINK_ReadMemEx(0x08004C82, 0x2 Bytes, Flags = 0x02000000)
T5570 002:234.019    -- Read from C cache (2 bytes @ 0x08004C82)
T5570 002:234.036   Data:  FD F7
T5570 002:234.053 - 0.051ms returns 2 (0x2)
T5F3C 005:568.914 JLINK_ReadMemEx(0x08004C7C, 0x2 Bytes, Flags = 0x02000000)
T5F3C 005:568.967    -- Read from C cache (2 bytes @ 0x08004C7C)
T5F3C 005:568.985   Data:  2D ED
T5F3C 005:569.002 - 0.095ms returns 2 (0x2)
T5F3C 005:569.023 JLINK_HasError()
T5F3C 005:569.055 JLINK_Step()
T5F3C 005:569.524    -- Read from C cache (2 bytes @ 0x08004C7C)
T5F3C 005:569.564   CPU_ReadMem(4 bytes @ 0xE000ED18)
T5F3C 005:569.910   CPU_WriteMem(4 bytes @ 0xE000ED18)
T5F3C 005:570.157   CPU_ReadMem(4 bytes @ 0xE000ED18)
T5F3C 005:570.439   CPU_WriteMem(4 bytes @ 0xE000ED18)
T5F3C 005:570.726    -- Read from C cache (2 bytes @ 0x08004C7E)
T5F3C 005:570.753   -- Not simulated
T5F3C 005:570.782   CPU_WriteMem(4 bytes @ 0xE0002008)
T5F3C 005:573.573 - 4.530ms returns 0
T5F3C 005:573.595 JLINK_HasError()
T5F3C 005:573.609 JLINK_ReadReg(R15 (PC))
T5F3C 005:573.624 - 0.020ms returns 0x08004C80
T5F3C 005:573.637 JLINK_ReadReg(XPSR)
T5F3C 005:573.649 - 0.017ms returns 0x61000000
T5F3C 005:573.669 JLINK_ReadMemEx(0x08004C7E, 0x2 Bytes, Flags = 0x02000000)
T5F3C 005:573.693   CPU_ReadMem(64 bytes @ 0x08004C40)
T5F3C 005:574.195    -- Updating C cache (64 bytes @ 0x08004C40)
T5F3C 005:574.215    -- Read from C cache (2 bytes @ 0x08004C7E)
T5F3C 005:574.232   Data:  06 8B
T5F3C 005:574.249 - 0.586ms returns 2 (0x2)
T5F3C 005:574.264 JLINK_ReadMemEx(0x08004C80, 0x3C Bytes, Flags = 0x02000000)
T5F3C 005:574.277   CPU_ReadMem(64 bytes @ 0x08004C80)
T5F3C 005:574.773    -- Updating C cache (64 bytes @ 0x08004C80)
T5F3C 005:574.792    -- Read from C cache (60 bytes @ 0x08004C80)
T5F3C 005:574.809   Data:  B6 B0 FD F7 C1 F8 FF F7 09 F9 FE F7 0B FE FE F7 ...
T5F3C 005:574.826 - 0.568ms returns 60 (0x3C)
T5F3C 005:574.842 JLINK_ReadMemEx(0x08004C80, 0x2 Bytes, Flags = 0x02000000)
T5F3C 005:574.854    -- Read from C cache (2 bytes @ 0x08004C80)
T5F3C 005:574.871   Data:  B6 B0
T5F3C 005:574.888 - 0.052ms returns 2 (0x2)
T5F3C 005:574.903 JLINK_HasError()
T5F3C 005:574.917 JLINK_Step()
T5F3C 005:574.930    -- Read from C cache (2 bytes @ 0x08004C80)
T5F3C 005:574.948   CPU_ReadMem(4 bytes @ 0xE0001004)
T5F3C 005:575.236   -- Simulated
T5F3C 005:575.257 - 0.345ms returns 0
T5F3C 005:575.273 JLINK_HasError()
T5F3C 005:575.287 JLINK_ReadReg(R15 (PC))
T5F3C 005:575.301 - 0.019ms returns 0x08004C82
T5F3C 005:575.314 JLINK_ReadReg(XPSR)
T5F3C 005:575.326 - 0.017ms returns 0x61000000
T5F3C 005:575.423 JLINK_HasError()
T5F3C 005:575.436 JLINK_ReadReg(R0)
T5F3C 005:575.449 - 0.017ms returns 0x200006F0
T5F3C 005:575.461 JLINK_ReadReg(R1)
T5F3C 005:575.473 - 0.017ms returns 0x200008F0
T5F3C 005:575.485 JLINK_ReadReg(R2)
T5F3C 005:575.497 - 0.017ms returns 0x200008F0
T5F3C 005:575.510 JLINK_ReadReg(R3)
T5F3C 005:575.522 - 0.017ms returns 0x200008F0
T5F3C 005:575.534 JLINK_ReadReg(R4)
T5F3C 005:575.546 - 0.017ms returns 0x00000000
T5F3C 005:575.558 JLINK_ReadReg(R5)
T5F3C 005:575.570 - 0.017ms returns 0x2000068C
T5F3C 005:575.583 JLINK_ReadReg(R6)
T5F3C 005:575.595 - 0.017ms returns 0x00000000
T5F3C 005:575.607 JLINK_ReadReg(R7)
T5F3C 005:575.619 - 0.017ms returns 0x00000000
T5F3C 005:575.631 JLINK_ReadReg(R8)
T5F3C 005:575.643 - 0.061ms returns 0x00000000
T5F3C 005:575.702 JLINK_ReadReg(R9)
T5F3C 005:575.714 - 0.018ms returns 0x00000000
T5F3C 005:575.727 JLINK_ReadReg(R10)
T5F3C 005:575.739 - 0.017ms returns 0x08006758
T5F3C 005:575.751 JLINK_ReadReg(R11)
T5F3C 005:575.763 - 0.017ms returns 0x00000000
T5F3C 005:575.776 JLINK_ReadReg(R12)
T5F3C 005:575.787 - 0.017ms returns 0x200006CC
T5F3C 005:575.800 JLINK_ReadReg(R13 (SP))
T5F3C 005:575.812 - 0.018ms returns 0x20000C00
T5F3C 005:575.825 JLINK_ReadReg(R14)
T5F3C 005:575.837 - 0.017ms returns 0x08000237
T5F3C 005:575.850 JLINK_ReadReg(R15 (PC))
T5F3C 005:575.861 - 0.017ms returns 0x08004C82
T5F3C 005:575.874 JLINK_ReadReg(XPSR)
T5F3C 005:575.886 - 0.017ms returns 0x61000000
T5F3C 005:575.898 JLINK_ReadReg(MSP)
T5F3C 005:575.910 - 0.017ms returns 0x20000C00
T5F3C 005:575.923 JLINK_ReadReg(PSP)
T5F3C 005:575.934 - 0.017ms returns 0x00000000
T5F3C 005:575.947 JLINK_ReadReg(CFBP)
T5F3C 005:575.959 - 0.017ms returns 0x04000000
T5F3C 005:575.972 JLINK_ReadReg(FPSCR)
T5F3C 005:578.919 - 2.961ms returns 0x03000000
T5F3C 005:578.941 JLINK_ReadReg(FPS0)
T5F3C 005:578.955 - 0.019ms returns 0x00000000
T5F3C 005:578.967 JLINK_ReadReg(FPS1)
T5F3C 005:578.979 - 0.017ms returns 0x00000000
T5F3C 005:578.992 JLINK_ReadReg(FPS2)
T5F3C 005:579.005 - 0.019ms returns 0x00000000
T5F3C 005:579.018 JLINK_ReadReg(FPS3)
T5F3C 005:579.030 - 0.017ms returns 0x00000000
T5F3C 005:579.042 JLINK_ReadReg(FPS4)
T5F3C 005:579.054 - 0.017ms returns 0x00000000
T5F3C 005:579.067 JLINK_ReadReg(FPS5)
T5F3C 005:579.078 - 0.017ms returns 0x00000000
T5F3C 005:579.091 JLINK_ReadReg(FPS6)
T5F3C 005:579.103 - 0.017ms returns 0x00000000
T5F3C 005:579.115 JLINK_ReadReg(FPS7)
T5F3C 005:579.127 - 0.017ms returns 0x00000000
T5F3C 005:579.140 JLINK_ReadReg(FPS8)
T5F3C 005:579.151 - 0.017ms returns 0x00000000
T5F3C 005:579.164 JLINK_ReadReg(FPS9)
T5F3C 005:579.176 - 0.017ms returns 0x00000000
T5F3C 005:579.189 JLINK_ReadReg(FPS10)
T5F3C 005:579.200 - 0.017ms returns 0x00000000
T5F3C 005:579.213 JLINK_ReadReg(FPS11)
T5F3C 005:579.225 - 0.017ms returns 0x00000000
T5F3C 005:579.238 JLINK_ReadReg(FPS12)
T5F3C 005:579.249 - 0.017ms returns 0x00000000
T5F3C 005:579.262 JLINK_ReadReg(FPS13)
T5F3C 005:579.274 - 0.017ms returns 0x00000000
T5F3C 005:579.287 JLINK_ReadReg(FPS14)
T5F3C 005:579.300 - 0.019ms returns 0x00000000
T5F3C 005:579.313 JLINK_ReadReg(FPS15)
T5F3C 005:579.325 - 0.017ms returns 0x00000000
T5F3C 005:579.338 JLINK_ReadReg(FPS16)
T5F3C 005:579.350 - 0.017ms returns 0x00000000
T5F3C 005:579.362 JLINK_ReadReg(FPS17)
T5F3C 005:579.374 - 0.017ms returns 0x00000000
T5F3C 005:579.386 JLINK_ReadReg(FPS18)
T5F3C 005:579.398 - 0.017ms returns 0x00000000
T5F3C 005:579.411 JLINK_ReadReg(FPS19)
T5F3C 005:579.422 - 0.017ms returns 0x00000000
T5F3C 005:579.435 JLINK_ReadReg(FPS20)
T5F3C 005:579.447 - 0.017ms returns 0x00000000
T5F3C 005:579.459 JLINK_ReadReg(FPS21)
T5F3C 005:579.472 - 0.018ms returns 0x00000000
T5F3C 005:579.484 JLINK_ReadReg(FPS22)
T5F3C 005:579.496 - 0.017ms returns 0x00000000
T5F3C 005:579.508 JLINK_ReadReg(FPS23)
T5F3C 005:579.520 - 0.017ms returns 0x00000000
T5F3C 005:579.533 JLINK_ReadReg(FPS24)
T5F3C 005:579.545 - 0.018ms returns 0x00000000
T5F3C 005:579.558 JLINK_ReadReg(FPS25)
T5F3C 005:579.570 - 0.017ms returns 0x00000000
T5F3C 005:579.582 JLINK_ReadReg(FPS26)
T5F3C 005:579.594 - 0.017ms returns 0x00000000
T5F3C 005:579.607 JLINK_ReadReg(FPS27)
T5F3C 005:579.618 - 0.017ms returns 0x00000000
T5F3C 005:579.631 JLINK_ReadReg(FPS28)
T5F3C 005:579.643 - 0.017ms returns 0x00000000
T5F3C 005:579.655 JLINK_ReadReg(FPS29)
T5F3C 005:579.666 - 0.017ms returns 0x00000000
T5F3C 005:579.679 JLINK_ReadReg(FPS30)
T5F3C 005:579.690 - 0.017ms returns 0x00000000
T5F3C 005:579.703 JLINK_ReadReg(FPS31)
T5F3C 005:579.715 - 0.018ms returns 0x00000000
T5570 005:579.854 JLINK_HasError()
T5570 005:579.874 JLINK_ReadMemU32(0xE0001004, 0x1 Items)
T5570 005:579.893   Data:  B2 07 00 00
T5570 005:579.911   Debug reg: DWT_CYCCNT
T5570 005:579.928 - 0.059ms returns 1 (0x1)
T5570 005:580.084 JLINK_ReadMemEx(0x20000030, 0x4 Bytes, Flags = 0x02000000)
T5570 005:580.103   CPU_ReadMem(64 bytes @ 0x20000000)
T5570 005:580.692    -- Updating C cache (64 bytes @ 0x20000000)
T5570 005:580.716    -- Read from C cache (4 bytes @ 0x20000030)
T5570 005:580.734   Data:  00 00 00 00
T5570 005:580.751 - 0.673ms returns 4 (0x4)
T5570 005:582.118 JLINK_ReadMemEx(0x08004C82, 0x2 Bytes, Flags = 0x02000000)
T5570 005:582.138    -- Read from C cache (2 bytes @ 0x08004C82)
T5570 005:582.155   Data:  FD F7
T5570 005:582.172 - 0.060ms returns 2 (0x2)
T5570 005:582.186 JLINK_ReadMemEx(0x08004C84, 0x3C Bytes, Flags = 0x02000000)
T5570 005:582.198    -- Read from C cache (60 bytes @ 0x08004C84)
T5570 005:582.215   Data:  C1 F8 FF F7 09 F9 FE F7 0B FE FE F7 C5 FD FE F7 ...
T5570 005:582.232 - 0.052ms returns 60 (0x3C)
T5570 005:582.245 JLINK_ReadMemEx(0x08004C84, 0x2 Bytes, Flags = 0x02000000)
T5570 005:582.257    -- Read from C cache (2 bytes @ 0x08004C84)
T5570 005:582.274   Data:  C1 F8
T5570 005:582.292 - 0.052ms returns 2 (0x2)
T5F3C 006:033.381 JLINK_ReadMemEx(0x08004C82, 0x2 Bytes, Flags = 0x02000000)
T5F3C 006:033.434    -- Read from C cache (2 bytes @ 0x08004C82)
T5F3C 006:033.452   Data:  FD F7
T5F3C 006:033.469 - 0.094ms returns 2 (0x2)
T5F3C 006:033.482 JLINK_HasError()
T5F3C 006:033.496 JLINK_SetBPEx(Addr = 0x08004C86, Type = 0xFFFFFFF2)
T5F3C 006:033.513 - 0.022ms returns 0x00000002
T5F3C 006:033.526 JLINK_HasError()
T5F3C 006:033.538 JLINK_HasError()
T5F3C 006:033.550 JLINK_Go()
T5F3C 006:033.568   CPU_WriteMem(4 bytes @ 0xE0002000)
T5F3C 006:033.917   CPU_ReadMem(4 bytes @ 0xE0001000)
T5F3C 006:034.307   CPU_WriteMem(4 bytes @ 0xE0002008)
T5F3C 006:034.757   CPU_WriteMem(4 bytes @ 0xE0001004)
T5F3C 006:035.940 - 2.397ms
T5F3C 006:136.132 JLINK_HasError()
T5F3C 006:136.204 JLINK_IsHalted()
T5F3C 006:138.434 - 2.251ms returns TRUE
T5F3C 006:138.464 JLINK_HasError()
T5F3C 006:138.477 JLINK_Halt()
T5F3C 006:138.488 - 0.016ms returns 0x00
T5F3C 006:138.501 JLINK_IsHalted()
T5F3C 006:138.512 - 0.016ms returns TRUE
T5F3C 006:138.524 JLINK_IsHalted()
T5F3C 006:138.535 - 0.016ms returns TRUE
T5F3C 006:138.546 JLINK_IsHalted()
T5F3C 006:138.557 - 0.016ms returns TRUE
T5F3C 006:138.570 JLINK_HasError()
T5F3C 006:138.582 JLINK_ReadReg(R15 (PC))
T5F3C 006:138.597 - 0.019ms returns 0x08004C86
T5F3C 006:138.609 JLINK_ReadReg(XPSR)
T5F3C 006:138.620 - 0.016ms returns 0x61000000
T5F3C 006:138.636 JLINK_HasError()
T5F3C 006:138.648 JLINK_ClrBPEx(BPHandle = 0x00000002)
T5F3C 006:138.659 - 0.017ms returns 0x00
T5F3C 006:138.671 JLINK_HasError()
T5F3C 006:138.683 JLINK_HasError()
T5F3C 006:138.696 JLINK_ReadMemU32(0xE000ED30, 0x1 Items)
T5F3C 006:138.712   CPU_ReadMem(4 bytes @ 0xE000ED30)
T5F3C 006:139.095   Data:  02 00 00 00
T5F3C 006:139.114 - 0.423ms returns 1 (0x1)
T5F3C 006:139.127 JLINK_ReadMemU32(0xE0001028, 0x1 Items)
T5F3C 006:139.140   CPU_ReadMem(4 bytes @ 0xE0001028)
T5F3C 006:139.557   Data:  00 00 00 00
T5F3C 006:139.575   Debug reg: DWT_FUNC[0]
T5F3C 006:139.591 - 0.469ms returns 1 (0x1)
T5F3C 006:139.604 JLINK_ReadMemU32(0xE0001038, 0x1 Items)
T5F3C 006:139.616   CPU_ReadMem(4 bytes @ 0xE0001038)
T5F3C 006:139.962   Data:  00 02 00 00
T5F3C 006:139.981   Debug reg: DWT_FUNC[1]
T5F3C 006:139.998 - 0.399ms returns 1 (0x1)
T5F3C 006:140.012 JLINK_ReadMemU32(0xE0001048, 0x1 Items)
T5F3C 006:140.027   CPU_ReadMem(4 bytes @ 0xE0001048)
T5F3C 006:140.312   Data:  00 00 00 00
T5F3C 006:140.330   Debug reg: DWT_FUNC[2]
T5F3C 006:140.346 - 0.340ms returns 1 (0x1)
T5F3C 006:140.359 JLINK_ReadMemU32(0xE0001058, 0x1 Items)
T5F3C 006:140.372   CPU_ReadMem(4 bytes @ 0xE0001058)
T5F3C 006:140.710   Data:  00 00 00 00
T5F3C 006:140.727   Debug reg: DWT_FUNC[3]
T5F3C 006:140.744 - 0.390ms returns 1 (0x1)
T5F3C 006:140.848 JLINK_HasError()
T5F3C 006:140.862 JLINK_ReadReg(R0)
T5F3C 006:140.874 - 0.017ms returns 0x00000000
T5F3C 006:140.886 JLINK_ReadReg(R1)
T5F3C 006:140.898 - 0.017ms returns 0x40023840
T5F3C 006:140.910 JLINK_ReadReg(R2)
T5F3C 006:140.965 - 0.063ms returns 0xE000ED18
T5F3C 006:140.980 JLINK_ReadReg(R3)
T5F3C 006:140.991 - 0.017ms returns 0x10000000
T5F3C 006:141.003 JLINK_ReadReg(R4)
T5F3C 006:141.015 - 0.017ms returns 0x00000000
T5F3C 006:141.027 JLINK_ReadReg(R5)
T5F3C 006:141.038 - 0.017ms returns 0x2000068C
T5F3C 006:141.051 JLINK_ReadReg(R6)
T5F3C 006:141.062 - 0.017ms returns 0x00000000
T5F3C 006:141.074 JLINK_ReadReg(R7)
T5F3C 006:141.086 - 0.016ms returns 0x00000000
T5F3C 006:141.098 JLINK_ReadReg(R8)
T5F3C 006:141.110 - 0.021ms returns 0x00000000
T5F3C 006:141.127 JLINK_ReadReg(R9)
T5F3C 006:141.138 - 0.017ms returns 0x00000000
T5F3C 006:141.150 JLINK_ReadReg(R10)
T5F3C 006:141.162 - 0.016ms returns 0x08006758
T5F3C 006:141.173 JLINK_ReadReg(R11)
T5F3C 006:141.185 - 0.017ms returns 0x00000000
T5F3C 006:141.197 JLINK_ReadReg(R12)
T5F3C 006:141.209 - 0.016ms returns 0x200006CC
T5F3C 006:141.221 JLINK_ReadReg(R13 (SP))
T5F3C 006:141.233 - 0.017ms returns 0x20000C00
T5F3C 006:141.245 JLINK_ReadReg(R14)
T5F3C 006:141.257 - 0.017ms returns 0x08001E3B
T5F3C 006:141.269 JLINK_ReadReg(R15 (PC))
T5F3C 006:141.280 - 0.016ms returns 0x08004C86
T5F3C 006:141.293 JLINK_ReadReg(XPSR)
T5F3C 006:141.304 - 0.017ms returns 0x61000000
T5F3C 006:141.316 JLINK_ReadReg(MSP)
T5F3C 006:141.328 - 0.016ms returns 0x20000C00
T5F3C 006:141.340 JLINK_ReadReg(PSP)
T5F3C 006:141.351 - 0.017ms returns 0x00000000
T5F3C 006:141.364 JLINK_ReadReg(CFBP)
T5F3C 006:141.375 - 0.017ms returns 0x04000000
T5F3C 006:141.387 JLINK_ReadReg(FPSCR)
T5F3C 006:144.308 - 2.926ms returns 0x03000000
T5F3C 006:144.322 JLINK_ReadReg(FPS0)
T5F3C 006:144.334 - 0.017ms returns 0x00000000
T5F3C 006:144.346 JLINK_ReadReg(FPS1)
T5F3C 006:144.357 - 0.017ms returns 0x00000000
T5F3C 006:144.370 JLINK_ReadReg(FPS2)
T5F3C 006:144.381 - 0.017ms returns 0x00000000
T5F3C 006:144.393 JLINK_ReadReg(FPS3)
T5F3C 006:144.405 - 0.017ms returns 0x00000000
T5F3C 006:144.417 JLINK_ReadReg(FPS4)
T5F3C 006:144.430 - 0.017ms returns 0x00000000
T5F3C 006:144.442 JLINK_ReadReg(FPS5)
T5F3C 006:144.453 - 0.016ms returns 0x00000000
T5F3C 006:144.465 JLINK_ReadReg(FPS6)
T5F3C 006:144.477 - 0.017ms returns 0x00000000
T5F3C 006:144.489 JLINK_ReadReg(FPS7)
T5F3C 006:144.501 - 0.016ms returns 0x00000000
T5F3C 006:144.513 JLINK_ReadReg(FPS8)
T5F3C 006:144.524 - 0.017ms returns 0x00000000
T5F3C 006:144.536 JLINK_ReadReg(FPS9)
T5F3C 006:144.548 - 0.017ms returns 0x00000000
T5F3C 006:144.560 JLINK_ReadReg(FPS10)
T5F3C 006:144.571 - 0.017ms returns 0x00000000
T5F3C 006:144.584 JLINK_ReadReg(FPS11)
T5F3C 006:144.595 - 0.017ms returns 0x00000000
T5F3C 006:144.608 JLINK_ReadReg(FPS12)
T5F3C 006:144.619 - 0.017ms returns 0x00000000
T5F3C 006:144.632 JLINK_ReadReg(FPS13)
T5F3C 006:144.643 - 0.017ms returns 0x00000000
T5F3C 006:144.655 JLINK_ReadReg(FPS14)
T5F3C 006:144.667 - 0.017ms returns 0x00000000
T5F3C 006:144.679 JLINK_ReadReg(FPS15)
T5F3C 006:144.691 - 0.017ms returns 0x00000000
T5F3C 006:144.703 JLINK_ReadReg(FPS16)
T5F3C 006:144.714 - 0.017ms returns 0x00000000
T5F3C 006:144.727 JLINK_ReadReg(FPS17)
T5F3C 006:144.738 - 0.016ms returns 0x00000000
T5F3C 006:144.750 JLINK_ReadReg(FPS18)
T5F3C 006:144.762 - 0.017ms returns 0x00000000
T5F3C 006:144.774 JLINK_ReadReg(FPS19)
T5F3C 006:144.785 - 0.017ms returns 0x00000000
T5F3C 006:144.798 JLINK_ReadReg(FPS20)
T5F3C 006:144.809 - 0.017ms returns 0x00000000
T5F3C 006:144.821 JLINK_ReadReg(FPS21)
T5F3C 006:144.833 - 0.017ms returns 0x00000000
T5F3C 006:144.845 JLINK_ReadReg(FPS22)
T5F3C 006:144.856 - 0.017ms returns 0x00000000
T5F3C 006:144.869 JLINK_ReadReg(FPS23)
T5F3C 006:144.880 - 0.017ms returns 0x00000000
T5F3C 006:144.892 JLINK_ReadReg(FPS24)
T5F3C 006:144.904 - 0.017ms returns 0x00000000
T5F3C 006:144.916 JLINK_ReadReg(FPS25)
T5F3C 006:144.927 - 0.016ms returns 0x00000000
T5F3C 006:144.939 JLINK_ReadReg(FPS26)
T5F3C 006:144.951 - 0.017ms returns 0x00000000
T5F3C 006:144.963 JLINK_ReadReg(FPS27)
T5F3C 006:144.974 - 0.017ms returns 0x00000000
T5F3C 006:144.986 JLINK_ReadReg(FPS28)
T5F3C 006:145.023 - 0.043ms returns 0x00000000
T5F3C 006:145.036 JLINK_ReadReg(FPS29)
T5F3C 006:145.048 - 0.017ms returns 0x00000000
T5F3C 006:145.060 JLINK_ReadReg(FPS30)
T5F3C 006:145.072 - 0.017ms returns 0x00000000
T5F3C 006:145.084 JLINK_ReadReg(FPS31)
T5F3C 006:145.095 - 0.016ms returns 0x00000000
T5570 006:145.254 JLINK_HasError()
T5570 006:145.273 JLINK_ReadMemU32(0xE0001004, 0x1 Items)
T5570 006:145.290   CPU_ReadMem(4 bytes @ 0xE0001004)
T5570 006:145.583   Data:  F5 08 00 00
T5570 006:145.601   Debug reg: DWT_CYCCNT
T5570 006:145.618 - 0.350ms returns 1 (0x1)
T5570 006:145.705 JLINK_ReadMemEx(0x20000030, 0x4 Bytes, Flags = 0x02000000)
T5570 006:145.721   CPU_ReadMem(64 bytes @ 0x20000000)
T5570 006:146.236    -- Updating C cache (64 bytes @ 0x20000000)
T5570 006:146.254    -- Read from C cache (4 bytes @ 0x20000030)
T5570 006:146.270   Data:  00 00 00 00
T5570 006:146.287 - 0.587ms returns 4 (0x4)
T5570 006:148.039 JLINK_ReadMemEx(0x08004C86, 0x2 Bytes, Flags = 0x02000000)
T5570 006:148.061   CPU_ReadMem(64 bytes @ 0x08004C80)
T5570 006:148.640    -- Updating C cache (64 bytes @ 0x08004C80)
T5570 006:148.658    -- Read from C cache (2 bytes @ 0x08004C86)
T5570 006:148.675   Data:  FF F7
T5570 006:148.692 - 0.658ms returns 2 (0x2)
T5570 006:148.705 JLINK_ReadMemEx(0x08004C88, 0x3C Bytes, Flags = 0x02000000)
T5570 006:148.718   CPU_ReadMem(64 bytes @ 0x08004CC0)
T5570 006:149.331    -- Updating C cache (64 bytes @ 0x08004CC0)
T5570 006:149.348    -- Read from C cache (60 bytes @ 0x08004C88)
T5570 006:149.365   Data:  09 F9 FE F7 0B FE FE F7 C5 FD FE F7 B3 FE FE F7 ...
T5570 006:149.382 - 0.682ms returns 60 (0x3C)
T5570 006:149.395 JLINK_ReadMemEx(0x08004C88, 0x2 Bytes, Flags = 0x02000000)
T5570 006:149.407    -- Read from C cache (2 bytes @ 0x08004C88)
T5570 006:149.423   Data:  09 F9
T5570 006:149.440 - 0.050ms returns 2 (0x2)
T5F3C 006:545.833 JLINK_ReadMemEx(0x08004C86, 0x2 Bytes, Flags = 0x02000000)
T5F3C 006:545.870    -- Read from C cache (2 bytes @ 0x08004C86)
T5F3C 006:545.888   Data:  FF F7
T5F3C 006:545.905 - 0.077ms returns 2 (0x2)
T5F3C 006:545.918 JLINK_HasError()
T5F3C 006:545.932 JLINK_SetBPEx(Addr = 0x08004C8A, Type = 0xFFFFFFF2)
T5F3C 006:545.948 - 0.021ms returns 0x00000003
T5F3C 006:545.961 JLINK_HasError()
T5F3C 006:545.972 JLINK_HasError()
T5F3C 006:545.985 JLINK_Go()
T5F3C 006:546.003   CPU_WriteMem(4 bytes @ 0xE0002000)
T5F3C 006:546.346   CPU_ReadMem(4 bytes @ 0xE0001000)
T5F3C 006:546.724   CPU_WriteMem(4 bytes @ 0xE0002008)
T5F3C 006:547.572 - 1.601ms
T5F3C 006:648.486 JLINK_HasError()
T5F3C 006:648.521 JLINK_IsHalted()
T5F3C 006:650.849 - 2.345ms returns TRUE
T5F3C 006:650.875 JLINK_HasError()
T5F3C 006:650.888 JLINK_Halt()
T5F3C 006:650.899 - 0.016ms returns 0x00
T5F3C 006:650.911 JLINK_IsHalted()
T5F3C 006:650.922 - 0.016ms returns TRUE
T5F3C 006:650.934 JLINK_IsHalted()
T5F3C 006:650.945 - 0.016ms returns TRUE
T5F3C 006:650.957 JLINK_IsHalted()
T5F3C 006:650.968 - 0.016ms returns TRUE
T5F3C 006:650.980 JLINK_HasError()
T5F3C 006:650.993 JLINK_ReadReg(R15 (PC))
T5F3C 006:651.007 - 0.019ms returns 0x08004C8A
T5F3C 006:651.019 JLINK_ReadReg(XPSR)
T5F3C 006:651.031 - 0.017ms returns 0x61000000
T5F3C 006:651.046 JLINK_HasError()
T5F3C 006:651.058 JLINK_ClrBPEx(BPHandle = 0x00000003)
T5F3C 006:651.070 - 0.017ms returns 0x00
T5F3C 006:651.082 JLINK_HasError()
T5F3C 006:651.094 JLINK_HasError()
T5F3C 006:651.106 JLINK_ReadMemU32(0xE000ED30, 0x1 Items)
T5F3C 006:651.123   CPU_ReadMem(4 bytes @ 0xE000ED30)
T5F3C 006:651.614   Data:  02 00 00 00
T5F3C 006:651.631 - 0.532ms returns 1 (0x1)
T5F3C 006:651.645 JLINK_ReadMemU32(0xE0001028, 0x1 Items)
T5F3C 006:651.658   CPU_ReadMem(4 bytes @ 0xE0001028)
T5F3C 006:652.064   Data:  00 00 00 00
T5F3C 006:652.110   Debug reg: DWT_FUNC[0]
T5F3C 006:652.127 - 0.487ms returns 1 (0x1)
T5F3C 006:652.140 JLINK_ReadMemU32(0xE0001038, 0x1 Items)
T5F3C 006:652.152   CPU_ReadMem(4 bytes @ 0xE0001038)
T5F3C 006:652.522   Data:  00 02 00 00
T5F3C 006:652.542   Debug reg: DWT_FUNC[1]
T5F3C 006:652.564 - 0.430ms returns 1 (0x1)
T5F3C 006:652.578 JLINK_ReadMemU32(0xE0001048, 0x1 Items)
T5F3C 006:652.590   CPU_ReadMem(4 bytes @ 0xE0001048)
T5F3C 006:652.855   Data:  00 00 00 00
T5F3C 006:652.872   Debug reg: DWT_FUNC[2]
T5F3C 006:652.890 - 0.317ms returns 1 (0x1)
T5F3C 006:652.903 JLINK_ReadMemU32(0xE0001058, 0x1 Items)
T5F3C 006:652.915   CPU_ReadMem(4 bytes @ 0xE0001058)
T5F3C 006:653.196   Data:  00 00 00 00
T5F3C 006:653.213   Debug reg: DWT_FUNC[3]
T5F3C 006:653.230 - 0.332ms returns 1 (0x1)
T5F3C 006:653.327 JLINK_HasError()
T5F3C 006:653.341 JLINK_ReadReg(R0)
T5F3C 006:653.353 - 0.018ms returns 0x00000000
T5F3C 006:653.366 JLINK_ReadReg(R1)
T5F3C 006:653.377 - 0.017ms returns 0x00000000
T5F3C 006:653.390 JLINK_ReadReg(R2)
T5F3C 006:653.401 - 0.017ms returns 0xE000ED18
T5F3C 006:653.414 JLINK_ReadReg(R3)
T5F3C 006:653.426 - 0.017ms returns 0x0000000B
T5F3C 006:653.438 JLINK_ReadReg(R4)
T5F3C 006:653.449 - 0.017ms returns 0x00000000
T5F3C 006:653.462 JLINK_ReadReg(R5)
T5F3C 006:653.473 - 0.018ms returns 0x2000068C
T5F3C 006:653.487 JLINK_ReadReg(R6)
T5F3C 006:653.499 - 0.017ms returns 0x00000000
T5F3C 006:653.511 JLINK_ReadReg(R7)
T5F3C 006:653.523 - 0.017ms returns 0x00000000
T5F3C 006:653.536 JLINK_ReadReg(R8)
T5F3C 006:653.548 - 0.017ms returns 0x00000000
T5F3C 006:653.560 JLINK_ReadReg(R9)
T5F3C 006:653.572 - 0.017ms returns 0x00000000
T5F3C 006:653.584 JLINK_ReadReg(R10)
T5F3C 006:653.596 - 0.017ms returns 0x08006758
T5F3C 006:653.609 JLINK_ReadReg(R11)
T5F3C 006:653.620 - 0.017ms returns 0x00000000
T5F3C 006:653.633 JLINK_ReadReg(R12)
T5F3C 006:653.644 - 0.017ms returns 0xFFFFFFFF
T5F3C 006:653.657 JLINK_ReadReg(R13 (SP))
T5F3C 006:653.669 - 0.018ms returns 0x20000C00
T5F3C 006:653.681 JLINK_ReadReg(R14)
T5F3C 006:653.693 - 0.017ms returns 0x08001F71
T5F3C 006:653.705 JLINK_ReadReg(R15 (PC))
